
T11AC 000:387 SEGGER J-Link V4.96d Log File (0001ms, 0289ms total)
T11AC 000:387 DLL Compiled: Jan 29 2015 11:45:37 (0001ms, 0289ms total)
T11AC 000:387 Logging started @ 2019-11-27 14:40 (0001ms, 0289ms total)
T11AC 000:388 JLINK_SetWarnOutHandler(...) (0000ms, 0289ms total)
T11AC 000:388 JLINK_OpenEx(...)
Firmware: J-Link V9 compiled Jul 24 2017 17:37:57
Hardware: V9.20
Feature(s): RDI, GDB, FlashDL, FlashBP, JFlash, RDDI  returns O.K. (0280ms, 0569ms total)
T11AC 000:668 JLINK_SetErrorOutHandler(...) (0000ms, 0569ms total)
T11AC 000:668 JLINK_ExecCommand("ProjectFile = "E:\all code\SVN\AE_G_Project\STM32F407VG_board\MDK-ARM\JLinkSettings.ini"", ...)Device "CORTEX-M4" selected.  returns 0x00 (0015ms, 0584ms total)
T11AC 000:707 JLINK_ExecCommand("Device = STM32F407VGTx", ...)Device "CORTEX-M4" selected.  returns 0x00 (0007ms, 0591ms total)
T11AC 000:714 JLINK_ExecCommand("DisableConnectionTimeout", ...)  returns 0x01 (0000ms, 0591ms total)
T11AC 000:714 JLINK_GetHardwareVersion()  returns 0x16760 (0000ms, 0591ms total)
T11AC 000:714 JLINK_GetDLLVersion()  returns 49604 (0000ms, 0591ms total)
T11AC 000:714 JLINK_GetFirmwareString(...) (0000ms, 0591ms total)
T11AC 000:732 JLINK_GetDLLVersion()  returns 49604 (0000ms, 0591ms total)
T11AC 000:732 JLINK_GetCompileDateTime() (0000ms, 0591ms total)
T11AC 000:740 JLINK_GetFirmwareString(...) (0000ms, 0591ms total)
T11AC 000:744 JLINK_GetHardwareVersion()  returns 0x16760 (0000ms, 0591ms total)
T11AC 000:758 JLINK_TIF_Select(JLINKARM_TIF_SWD)  returns 0x00 (0004ms, 0595ms total)
T11AC 000:762 JLINK_SetSpeed(20000) (0001ms, 0596ms total)
T11AC 000:763 JLINK_GetId() >0x108 TIF>Found SWD-DP with ID 0x2BA01477 >0x0D TIF> >0x21 TIF> >0x0D TIF> >0x28 TIF> >0x0D TIF> >0x28 TIF> >0x0D TIF> >0x21 TIF> >0x0D TIF> >0x28 TIF> >0x0D TIF> >0x21 TIF> >0x0D TIF> >0x21 TIF> >0x0D TIF> >0x21 TIF> >0x0D TIF> >0x21 TIF> >0x0D TIF> >0x28 TIF> >0x0D TIF> >0x28 TIF> >0x0D TIF> >0x21 TIF> >0x0D TIF> >0x28 TIF> >0x0D TIF> >0x28 TIF> >0x0D TIF> >0x28 TIF> >0x0D TIF> >0x21 TIF> >0x0D TIF> >0x21 TIF> >0x0D TIF> >0x28 TIF> >0x0D TIF> >0x21 TIF> >0x0D TIF>
 >0x21 TIF>Found Cortex-M4 r0p1, Little endian. -- CPU_WriteMem(4 bytes @ 0xE0002000) -- CPU_ReadMem(4 bytes @ 0xE000EDF0) -- CPU_ReadMem(4 bytes @ 0xE0002000)FPUnit: 6 code (BP) slots and 2 literal slots -- CPU_ReadMem(4 bytes @ 0xE000EDFC) -- CPU_ReadMem(4 bytes @ 0xE0001000) -- CPU_WriteMem(4 bytes @ 0xE0001000) -- CPU_ReadMem(4 bytes @ 0xE000ED88) -- CPU_WriteMem(4 bytes @ 0xE000ED88) -- CPU_ReadMem(4 bytes @ 0xE000ED88) -- CPU_WriteMem(4 bytes @ 0xE000ED88) -- CPU_ReadMem(4 bytes @ 0xE00FF010)
TPIU fitted. -- CPU_ReadMem(4 bytes @ 0xE00FF014)ETM fitted. -- CPU_ReadMem(4 bytes @ 0xE00FF018) >0x0D TIF> >0x21 TIF>  returns 0x2BA01477 (0102ms, 0698ms total)
T11AC 000:865 JLINK_GetDLLVersion()  returns 49604 (0000ms, 0698ms total)
T11AC 000:865 JLINK_CORE_GetFound()  returns 0xE0000FF (0000ms, 0698ms total)
T11AC 000:865 JLINK_GetDebugInfo(0x100) -- Value=0xE00FF003  returns 0x00 (0000ms, 0698ms total)
T11AC 000:870 JLINK_ReadMem (0xE00FF000, 0x0020 Bytes, ...) -- CPU is running -- CPU_ReadMem(32 bytes @ 0xE00FF000) - Data: 03 F0 F0 FF 03 20 F0 FF 03 30 F0 FF 03 10 F0 FF ...  returns 0x00 (0001ms, 0699ms total)
T11AC 000:871 JLINK_ReadMem (0xE000EFF0, 0x0010 Bytes, ...) -- CPU is running -- CPU_ReadMem(16 bytes @ 0xE000EFF0) - Data: 0D 00 00 00 E0 00 00 00 05 00 00 00 B1 00 00 00  returns 0x00 (0001ms, 0700ms total)
T11AC 000:872 JLINK_ReadMem (0xE000EFD0, 0x0020 Bytes, ...) -- CPU is running -- CPU_ReadMem(32 bytes @ 0xE000EFD0) - Data: 04 00 00 00 00 00 00 00 00 00 00 00 00 00 00 00 ...  returns 0x00 (0002ms, 0702ms total)
T11AC 000:874 JLINK_ReadMem (0xE0001FF0, 0x0010 Bytes, ...) -- CPU is running -- CPU_ReadMem(16 bytes @ 0xE0001FF0) - Data: 0D 00 00 00 E0 00 00 00 05 00 00 00 B1 00 00 00  returns 0x00 (0001ms, 0703ms total)
T11AC 000:875 JLINK_ReadMem (0xE0001FD0, 0x0020 Bytes, ...) -- CPU is running -- CPU_ReadMem(32 bytes @ 0xE0001FD0) - Data: 04 00 00 00 00 00 00 00 00 00 00 00 00 00 00 00 ...  returns 0x00 (0001ms, 0704ms total)
T11AC 000:876 JLINK_ReadMem (0xE0002FF0, 0x0010 Bytes, ...) -- CPU is running -- CPU_ReadMem(16 bytes @ 0xE0002FF0) - Data: 0D 00 00 00 E0 00 00 00 05 00 00 00 B1 00 00 00  returns 0x00 (0001ms, 0705ms total)
T11AC 000:877 JLINK_ReadMem (0xE0002FD0, 0x0020 Bytes, ...) -- CPU is running -- CPU_ReadMem(32 bytes @ 0xE0002FD0) - Data: 04 00 00 00 00 00 00 00 00 00 00 00 00 00 00 00 ...  returns 0x00 (0001ms, 0706ms total)
T11AC 000:878 JLINK_ReadMem (0xE0000FF0, 0x0010 Bytes, ...) -- CPU is running -- CPU_ReadMem(16 bytes @ 0xE0000FF0) - Data: 0D 00 00 00 E0 00 00 00 05 00 00 00 B1 00 00 00  returns 0x00 (0001ms, 0707ms total)
T11AC 000:879 JLINK_ReadMem (0xE0000FD0, 0x0020 Bytes, ...) -- CPU is running -- CPU_ReadMem(32 bytes @ 0xE0000FD0) - Data: 04 00 00 00 00 00 00 00 00 00 00 00 00 00 00 00 ...  returns 0x00 (0001ms, 0708ms total)
T11AC 000:880 JLINK_ReadMem (0xE0040FF0, 0x0010 Bytes, ...) -- CPU is running -- CPU_ReadMem(16 bytes @ 0xE0040FF0) - Data: 0D 00 00 00 90 00 00 00 05 00 00 00 B1 00 00 00  returns 0x00 (0001ms, 0709ms total)
T11AC 000:881 JLINK_ReadMem (0xE0040FD0, 0x0020 Bytes, ...) -- CPU is running -- CPU_ReadMem(32 bytes @ 0xE0040FD0) - Data: 04 00 00 00 00 00 00 00 00 00 00 00 00 00 00 00 ...  returns 0x00 (0001ms, 0710ms total)
T11AC 000:882 JLINK_ReadMem (0xE0041FF0, 0x0010 Bytes, ...) -- CPU is running -- CPU_ReadMem(16 bytes @ 0xE0041FF0) - Data: 0D 00 00 00 90 00 00 00 05 00 00 00 B1 00 00 00  returns 0x00 (0001ms, 0711ms total)
T11AC 000:883 JLINK_ReadMem (0xE0041FD0, 0x0020 Bytes, ...) -- CPU is running -- CPU_ReadMem(32 bytes @ 0xE0041FD0) - Data: 04 00 00 00 00 00 00 00 00 00 00 00 00 00 00 00 ...  returns 0x00 (0001ms, 0712ms total)
T11AC 000:884 JLINK_ReadMemU32(0xE000EF40, 0x0001 Items, ...) -- CPU is running -- CPU_ReadMem(4 bytes @ 0xE000EF40) - Data: 21 00 11 10  returns 0x01 (0001ms, 0713ms total)
T11AC 000:885 JLINK_ReadMemU32(0xE000EF44, 0x0001 Items, ...) -- CPU is running -- CPU_ReadMem(4 bytes @ 0xE000EF44) - Data: 11 00 00 11  returns 0x01 (0001ms, 0714ms total)
T11AC 000:886 JLINK_ReadMemU32(0xE000ED00, 0x0001 Items, ...) -- CPU is running -- CPU_ReadMem(4 bytes @ 0xE000ED00) - Data: 41 C2 0F 41  returns 0x01 (0001ms, 0715ms total)
T11AC 000:887 JLINK_SetResetType(JLINKARM_RESET_TYPE_NORMAL)  returns JLINKARM_RESET_TYPE_NORMAL (0000ms, 0715ms total)
T11AC 000:887 JLINK_Reset() -- CPU is running -- CPU_WriteMem(4 bytes @ 0xE000EDF0) -- CPU is running -- CPU_WriteMem(4 bytes @ 0xE000EDFC) >0x35 TIF> -- CPU is running -- CPU_WriteMem(4 bytes @ 0xE000ED0C) -- CPU is running -- CPU_ReadMem(4 bytes @ 0xE000EDF0) -- CPU is running -- CPU_ReadMem(4 bytes @ 0xE000EDF0) -- CPU is running -- CPU_WriteMem(4 bytes @ 0xE000EDF0) -- CPU is running -- CPU_WriteMem(4 bytes @ 0xE000EDFC) -- CPU is running -- CPU_ReadMem(4 bytes @ 0xE000EDF0)
 -- CPU_WriteMem(4 bytes @ 0xE0002000) -- CPU_ReadMem(4 bytes @ 0xE000EDFC) -- CPU_ReadMem(4 bytes @ 0xE0001000) (0023ms, 0738ms total)
T11AC 000:910 JLINK_Halt()  returns 0x00 (0000ms, 0738ms total)
T11AC 000:910 JLINK_IsHalted()  returns TRUE (0000ms, 0738ms total)
T11AC 000:910 JLINK_ReadMemU32(0xE000EDF0, 0x0001 Items, ...) -- CPU_ReadMem(4 bytes @ 0xE000EDF0) - Data: 03 00 03 00  returns 0x01 (0001ms, 0739ms total)
T11AC 000:911 JLINK_WriteU32(0xE000EDF0, 0xA05F0003) -- CPU_WriteMem(4 bytes @ 0xE000EDF0)  returns 0x00 (0001ms, 0740ms total)
T11AC 000:912 JLINK_WriteU32(0xE000EDFC, 0x01000000) -- CPU_WriteMem(4 bytes @ 0xE000EDFC)  returns 0x00 (0001ms, 0741ms total)
T11AC 000:946 JLINK_GetHWStatus(...)  returns 0x00 (0001ms, 0742ms total)
T11AC 000:964 JLINK_GetNumBPUnits(Type = 0xFFFFFF00)  returns 0x06 (0000ms, 0742ms total)
T11AC 000:964 JLINK_GetNumBPUnits(Type = 0xF0)  returns 0x2000 (0000ms, 0742ms total)
T11AC 000:964 JLINK_GetNumWPUnits()  returns 0x04 (0000ms, 0742ms total)
T11AC 000:978 JLINK_GetSpeed()  returns 0x2EE0 (0000ms, 0742ms total)
T11AC 000:987 JLINK_ReadMemU32(0xE000E004, 0x0001 Items, ...) -- CPU_ReadMem(4 bytes @ 0xE000E004) - Data: 02 00 00 00  returns 0x01 (0001ms, 0743ms total)
T11AC 000:988 JLINK_ReadMemU32(0xE000E004, 0x0001 Items, ...) -- CPU_ReadMem(4 bytes @ 0xE000E004) - Data: 02 00 00 00  returns 0x01 (0001ms, 0744ms total)
T11AC 000:989 JLINK_WriteMem(0xE0001000, 0x001C Bytes, ...) - Data: 01 00 00 00 00 00 00 00 00 00 00 00 00 00 00 00 ... -- CPU_WriteMem(28 bytes @ 0xE0001000)  returns 0x1C (0002ms, 0746ms total)
T11AC 000:991 JLINK_ReadMem (0xE0001000, 0x001C Bytes, ...) -- CPU_ReadMem(28 bytes @ 0xE0001000) - Data: 01 00 00 40 00 00 00 00 00 00 00 00 00 00 00 00 ...  returns 0x00 (0001ms, 0747ms total)
T11AC 000:992 JLINK_Halt()  returns 0x00 (0000ms, 0747ms total)
T11AC 000:992 JLINK_IsHalted()  returns TRUE (0000ms, 0747ms total)
T11AC 000:996 JLINK_WriteMem(0x20000000, 0x0180 Bytes, ...) - Data: 00 BE 0A E0 0D 78 2D 06 68 40 08 24 40 00 00 D3 ... -- CPU_WriteMem(384 bytes @ 0x20000000)  returns 0x180 (0003ms, 0750ms total)
T11AC 000:999 JLINK_WriteReg(R0, 0x08000000)  returns 0x00 (0000ms, 0750ms total)
T11AC 000:999 JLINK_WriteReg(R1, 0x0A037A00)  returns 0x00 (0000ms, 0750ms total)
T11AC 000:999 JLINK_WriteReg(R2, 0x00000001)  returns 0x00 (0000ms, 0750ms total)
T11AC 000:999 JLINK_WriteReg(R3, 0x00000000)  returns 0x00 (0000ms, 0750ms total)
T11AC 000:999 JLINK_WriteReg(R4, 0x00000000)  returns 0x00 (0000ms, 0750ms total)
T11AC 000:999 JLINK_WriteReg(R5, 0x00000000)  returns 0x00 (0000ms, 0750ms total)
T11AC 000:999 JLINK_WriteReg(R6, 0x00000000)  returns 0x00 (0000ms, 0750ms total)
T11AC 000:999 JLINK_WriteReg(R7, 0x00000000)  returns 0x00 (0000ms, 0750ms total)
T11AC 000:999 JLINK_WriteReg(R8, 0x00000000)  returns 0x00 (0000ms, 0750ms total)
T11AC 000:999 JLINK_WriteReg(R9, 0x2000017C)  returns 0x00 (0000ms, 0750ms total)
T11AC 000:999 JLINK_WriteReg(R10, 0x00000000)  returns 0x00 (0000ms, 0750ms total)
T11AC 000:999 JLINK_WriteReg(R11, 0x00000000)  returns 0x00 (0000ms, 0750ms total)
T11AC 000:999 JLINK_WriteReg(R12, 0x00000000)  returns 0x00 (0000ms, 0750ms total)
T11AC 000:999 JLINK_WriteReg(R13 (SP), 0x20001000)  returns 0x00 (0000ms, 0750ms total)
T11AC 000:999 JLINK_WriteReg(R14, 0x20000001)  returns 0x00 (0000ms, 0750ms total)
T11AC 000:999 JLINK_WriteReg(R15 (PC), 0x20000054)  returns 0x00 (0000ms, 0750ms total)
T11AC 000:999 JLINK_WriteReg(XPSR, 0x01000000)  returns 0x00 (0000ms, 0750ms total)
T11AC 000:999 JLINK_WriteReg(MSP, 0x20001000)  returns 0x00 (0000ms, 0750ms total)
T11AC 000:999 JLINK_WriteReg(PSP, 0x20001000)  returns 0x00 (0000ms, 0750ms total)
T11AC 000:999 JLINK_WriteReg(CFBP, 0x00000000)  returns 0x00 (0000ms, 0750ms total)
T11AC 000:999 JLINK_SetBPEx(Addr = 0x20000000, Type = 0xFFFFFFF2) -- CPU_ReadMem(4 bytes @ 0x20000000) -- CPU_WriteMem(4 bytes @ 0x20000000) -- CPU_ReadMem(4 bytes @ 0x20000000) -- CPU_WriteMem(4 bytes @ 0x20000000) -- CPU_ReadMem(2 bytes @ 0x20000000)  returns 0x00000001 (0006ms, 0756ms total)
T11AC 001:005 JLINK_Go() -- CPU_WriteMem(2 bytes @ 0x20000000) -- CPU_WriteMem(4 bytes @ 0xE0002008) -- CPU_WriteMem(4 bytes @ 0xE000200C) -- CPU_WriteMem(4 bytes @ 0xE0002010) -- CPU_WriteMem(4 bytes @ 0xE0002014) -- CPU_WriteMem(4 bytes @ 0xE0002018) -- CPU_WriteMem(4 bytes @ 0xE000201C) -- CPU_WriteMem(4 bytes @ 0xE0001004) (0010ms, 0766ms total)
T11AC 001:015 JLINK_IsHalted() -- CPU_ReadMem(2 bytes @ 0x20000000)  returns TRUE (0004ms, 0770ms total)
T11AC 001:019 JLINK_ReadReg(R15 (PC))  returns 0x20000000 (0000ms, 0766ms total)
T11AC 001:019 JLINK_ClrBPEx(BPHandle = 0x00000001)  returns 0x00 (0000ms, 0766ms total)
T11AC 001:019 JLINK_ReadReg(R0)  returns 0x00000000 (0000ms, 0766ms total)
T11AC 001:020 JLINK_WriteReg(R0, 0x08010000)  returns 0x00 (0000ms, 0766ms total)
T11AC 001:020 JLINK_WriteReg(R1, 0x00010000)  returns 0x00 (0000ms, 0766ms total)
T11AC 001:020 JLINK_WriteReg(R2, 0x000000FF)  returns 0x00 (0000ms, 0766ms total)
T11AC 001:020 JLINK_WriteReg(R3, 0x00000000)  returns 0x00 (0000ms, 0766ms total)
T11AC 001:020 JLINK_WriteReg(R4, 0x00000000)  returns 0x00 (0000ms, 0766ms total)
T11AC 001:020 JLINK_WriteReg(R5, 0x00000000)  returns 0x00 (0000ms, 0766ms total)
T11AC 001:020 JLINK_WriteReg(R6, 0x00000000)  returns 0x00 (0000ms, 0766ms total)
T11AC 001:020 JLINK_WriteReg(R7, 0x00000000)  returns 0x00 (0000ms, 0766ms total)
T11AC 001:020 JLINK_WriteReg(R8, 0x00000000)  returns 0x00 (0000ms, 0766ms total)
T11AC 001:020 JLINK_WriteReg(R9, 0x2000017C)  returns 0x00 (0000ms, 0766ms total)
T11AC 001:020 JLINK_WriteReg(R10, 0x00000000)  returns 0x00 (0000ms, 0766ms total)
T11AC 001:020 JLINK_WriteReg(R11, 0x00000000)  returns 0x00 (0000ms, 0766ms total)
T11AC 001:020 JLINK_WriteReg(R12, 0x00000000)  returns 0x00 (0000ms, 0766ms total)
T11AC 001:020 JLINK_WriteReg(R13 (SP), 0x20001000)  returns 0x00 (0000ms, 0766ms total)
T11AC 001:020 JLINK_WriteReg(R14, 0x20000001)  returns 0x00 (0000ms, 0766ms total)
T11AC 001:020 JLINK_WriteReg(R15 (PC), 0x20000020)  returns 0x00 (0000ms, 0766ms total)
T11AC 001:020 JLINK_WriteReg(XPSR, 0x01000000)  returns 0x00 (0000ms, 0766ms total)
T11AC 001:020 JLINK_WriteReg(MSP, 0x20001000)  returns 0x00 (0000ms, 0766ms total)
T11AC 001:020 JLINK_WriteReg(PSP, 0x20001000)  returns 0x00 (0000ms, 0766ms total)
T11AC 001:020 JLINK_WriteReg(CFBP, 0x00000000)  returns 0x00 (0000ms, 0766ms total)
T11AC 001:020 JLINK_SetBPEx(Addr = 0x20000000, Type = 0xFFFFFFF2)  returns 0x00000002 (0000ms, 0766ms total)
T11AC 001:020 JLINK_Go() (0002ms, 0768ms total)
T11AC 001:022 JLINK_IsHalted()  returns FALSE (0001ms, 0769ms total)
T11AC 001:122 JLINK_IsHalted() -- CPU_ReadMem(2 bytes @ 0x20000000)  returns TRUE (0004ms, 0772ms total)
T11AC 001:126 JLINK_ReadReg(R15 (PC))  returns 0x20000000 (0000ms, 0768ms total)
T11AC 001:126 JLINK_ClrBPEx(BPHandle = 0x00000002)  returns 0x00 (0000ms, 0768ms total)
T11AC 001:126 JLINK_ReadReg(R0)  returns 0x00000000 (0000ms, 0768ms total)
T11AC 001:126 JLINK_WriteReg(R0, 0x00000001)  returns 0x00 (0000ms, 0768ms total)
T11AC 001:126 JLINK_WriteReg(R1, 0x00010000)  returns 0x00 (0000ms, 0768ms total)
T11AC 001:126 JLINK_WriteReg(R2, 0x000000FF)  returns 0x00 (0000ms, 0768ms total)
T11AC 001:126 JLINK_WriteReg(R3, 0x00000000)  returns 0x00 (0000ms, 0768ms total)
T11AC 001:126 JLINK_WriteReg(R4, 0x00000000)  returns 0x00 (0000ms, 0768ms total)
T11AC 001:126 JLINK_WriteReg(R5, 0x00000000)  returns 0x00 (0000ms, 0768ms total)
T11AC 001:126 JLINK_WriteReg(R6, 0x00000000)  returns 0x00 (0000ms, 0768ms total)
T11AC 001:126 JLINK_WriteReg(R7, 0x00000000)  returns 0x00 (0000ms, 0768ms total)
T11AC 001:126 JLINK_WriteReg(R8, 0x00000000)  returns 0x00 (0000ms, 0768ms total)
T11AC 001:126 JLINK_WriteReg(R9, 0x2000017C)  returns 0x00 (0000ms, 0768ms total)
T11AC 001:126 JLINK_WriteReg(R10, 0x00000000)  returns 0x00 (0000ms, 0768ms total)
T11AC 001:126 JLINK_WriteReg(R11, 0x00000000)  returns 0x00 (0000ms, 0768ms total)
T11AC 001:126 JLINK_WriteReg(R12, 0x00000000)  returns 0x00 (0001ms, 0769ms total)
T11AC 001:127 JLINK_WriteReg(R13 (SP), 0x20001000)  returns 0x00 (0000ms, 0769ms total)
T11AC 001:127 JLINK_WriteReg(R14, 0x20000001)  returns 0x00 (0000ms, 0769ms total)
T11AC 001:127 JLINK_WriteReg(R15 (PC), 0x20000082)  returns 0x00 (0000ms, 0769ms total)
T11AC 001:127 JLINK_WriteReg(XPSR, 0x01000000)  returns 0x00 (0000ms, 0769ms total)
T11AC 001:127 JLINK_WriteReg(MSP, 0x20001000)  returns 0x00 (0000ms, 0769ms total)
T11AC 001:127 JLINK_WriteReg(PSP, 0x20001000)  returns 0x00 (0000ms, 0769ms total)
T11AC 001:127 JLINK_WriteReg(CFBP, 0x00000000)  returns 0x00 (0000ms, 0769ms total)
T11AC 001:127 JLINK_SetBPEx(Addr = 0x20000000, Type = 0xFFFFFFF2)  returns 0x00000003 (0000ms, 0769ms total)
T11AC 001:127 JLINK_Go() (0002ms, 0771ms total)
T11AC 001:129 JLINK_IsHalted() -- CPU_ReadMem(2 bytes @ 0x20000000)  returns TRUE (0004ms, 0775ms total)
T11AC 001:133 JLINK_ReadReg(R15 (PC))  returns 0x20000000 (0000ms, 0771ms total)
T11AC 001:133 JLINK_ClrBPEx(BPHandle = 0x00000003)  returns 0x00 (0000ms, 0771ms total)
T11AC 001:133 JLINK_ReadReg(R0)  returns 0x00000000 (0000ms, 0771ms total)
T11AC 001:206 JLINK_WriteMem(0x20000000, 0x0180 Bytes, ...) - Data: 00 BE 0A E0 0D 78 2D 06 68 40 08 24 40 00 00 D3 ... -- CPU_WriteMem(384 bytes @ 0x20000000)  returns 0x180 (0002ms, 0773ms total)
T11AC 001:208 JLINK_WriteReg(R0, 0x08000000)  returns 0x00 (0000ms, 0773ms total)
T11AC 001:208 JLINK_WriteReg(R1, 0x0A037A00)  returns 0x00 (0000ms, 0773ms total)
T11AC 001:208 JLINK_WriteReg(R2, 0x00000002)  returns 0x00 (0000ms, 0773ms total)
T11AC 001:208 JLINK_WriteReg(R3, 0x00000000)  returns 0x00 (0000ms, 0773ms total)
T11AC 001:208 JLINK_WriteReg(R4, 0x00000000)  returns 0x00 (0000ms, 0773ms total)
T11AC 001:208 JLINK_WriteReg(R5, 0x00000000)  returns 0x00 (0000ms, 0773ms total)
T11AC 001:208 JLINK_WriteReg(R6, 0x00000000)  returns 0x00 (0000ms, 0773ms total)
T11AC 001:208 JLINK_WriteReg(R7, 0x00000000)  returns 0x00 (0000ms, 0773ms total)
T11AC 001:208 JLINK_WriteReg(R8, 0x00000000)  returns 0x00 (0000ms, 0773ms total)
T11AC 001:208 JLINK_WriteReg(R9, 0x2000017C)  returns 0x00 (0000ms, 0773ms total)
T11AC 001:208 JLINK_WriteReg(R10, 0x00000000)  returns 0x00 (0000ms, 0773ms total)
T11AC 001:208 JLINK_WriteReg(R11, 0x00000000)  returns 0x00 (0000ms, 0773ms total)
T11AC 001:208 JLINK_WriteReg(R12, 0x00000000)  returns 0x00 (0000ms, 0773ms total)
T11AC 001:208 JLINK_WriteReg(R13 (SP), 0x20001000)  returns 0x00 (0000ms, 0773ms total)
T11AC 001:208 JLINK_WriteReg(R14, 0x20000001)  returns 0x00 (0000ms, 0773ms total)
T11AC 001:208 JLINK_WriteReg(R15 (PC), 0x20000054)  returns 0x00 (0000ms, 0773ms total)
T11AC 001:208 JLINK_WriteReg(XPSR, 0x01000000)  returns 0x00 (0000ms, 0773ms total)
T11AC 001:208 JLINK_WriteReg(MSP, 0x20001000)  returns 0x00 (0000ms, 0773ms total)
T11AC 001:208 JLINK_WriteReg(PSP, 0x20001000)  returns 0x00 (0000ms, 0773ms total)
T11AC 001:208 JLINK_WriteReg(CFBP, 0x00000000)  returns 0x00 (0000ms, 0773ms total)
T11AC 001:208 JLINK_SetBPEx(Addr = 0x20000000, Type = 0xFFFFFFF2) -- CPU_ReadMem(4 bytes @ 0x20000000) -- CPU_WriteMem(4 bytes @ 0x20000000) -- CPU_ReadMem(4 bytes @ 0x20000000) -- CPU_WriteMem(4 bytes @ 0x20000000) -- CPU_ReadMem(2 bytes @ 0x20000000)  returns 0x00000004 (0006ms, 0779ms total)
T11AC 001:214 JLINK_Go() -- CPU_WriteMem(2 bytes @ 0x20000000) (0003ms, 0782ms total)
T11AC 001:217 JLINK_IsHalted() -- CPU_ReadMem(2 bytes @ 0x20000000)  returns TRUE (0004ms, 0786ms total)
T11AC 001:221 JLINK_ReadReg(R15 (PC))  returns 0x20000000 (0000ms, 0782ms total)
T11AC 001:221 JLINK_ClrBPEx(BPHandle = 0x00000004)  returns 0x00 (0000ms, 0782ms total)
T11AC 001:221 JLINK_ReadReg(R0)  returns 0x00000000 (0000ms, 0782ms total)
T11AC 001:221 JLINK_WriteMem(0x20000180, 0x0400 Bytes, ...) - Data: 40 5D 00 20 9D 01 01 08 F3 7D 01 08 89 73 01 08 ... -- CPU_WriteMem(1024 bytes @ 0x20000180)  returns 0x400 (0003ms, 0785ms total)
T11AC 001:224 JLINK_WriteReg(R0, 0x08010000)  returns 0x00 (0000ms, 0785ms total)
T11AC 001:224 JLINK_WriteReg(R1, 0x00000400)  returns 0x00 (0000ms, 0785ms total)
T11AC 001:224 JLINK_WriteReg(R2, 0x20000180)  returns 0x00 (0000ms, 0785ms total)
T11AC 001:224 JLINK_WriteReg(R3, 0x00000000)  returns 0x00 (0000ms, 0785ms total)
T11AC 001:224 JLINK_WriteReg(R4, 0x00000000)  returns 0x00 (0000ms, 0785ms total)
T11AC 001:224 JLINK_WriteReg(R5, 0x00000000)  returns 0x00 (0000ms, 0785ms total)
T11AC 001:224 JLINK_WriteReg(R6, 0x00000000)  returns 0x00 (0000ms, 0785ms total)
T11AC 001:224 JLINK_WriteReg(R7, 0x00000000)  returns 0x00 (0000ms, 0785ms total)
T11AC 001:224 JLINK_WriteReg(R8, 0x00000000)  returns 0x00 (0000ms, 0785ms total)
T11AC 001:224 JLINK_WriteReg(R9, 0x2000017C)  returns 0x00 (0000ms, 0785ms total)
T11AC 001:224 JLINK_WriteReg(R10, 0x00000000)  returns 0x00 (0000ms, 0785ms total)
T11AC 001:224 JLINK_WriteReg(R11, 0x00000000)  returns 0x00 (0000ms, 0785ms total)
T11AC 001:224 JLINK_WriteReg(R12, 0x00000000)  returns 0x00 (0000ms, 0785ms total)
T11AC 001:224 JLINK_WriteReg(R13 (SP), 0x20001000)  returns 0x00 (0000ms, 0785ms total)
T11AC 001:224 JLINK_WriteReg(R14, 0x20000001)  returns 0x00 (0000ms, 0785ms total)
T11AC 001:224 JLINK_WriteReg(R15 (PC), 0x20000108)  returns 0x00 (0000ms, 0785ms total)
T11AC 001:224 JLINK_WriteReg(XPSR, 0x01000000)  returns 0x00 (0000ms, 0785ms total)
T11AC 001:224 JLINK_WriteReg(MSP, 0x20001000)  returns 0x00 (0000ms, 0785ms total)
T11AC 001:224 JLINK_WriteReg(PSP, 0x20001000)  returns 0x00 (0001ms, 0786ms total)
T11AC 001:225 JLINK_WriteReg(CFBP, 0x00000000)  returns 0x00 (0000ms, 0786ms total)
T11AC 001:225 JLINK_SetBPEx(Addr = 0x20000000, Type = 0xFFFFFFF2)  returns 0x00000005 (0000ms, 0786ms total)
T11AC 001:225 JLINK_Go() (0002ms, 0788ms total)
T11AC 001:227 JLINK_IsHalted()  returns FALSE (0001ms, 0789ms total)
T11AC 001:326 JLINK_IsHalted() -- CPU_ReadMem(2 bytes @ 0x20000000)  returns TRUE (0004ms, 0792ms total)
T11AC 001:330 JLINK_ReadReg(R15 (PC))  returns 0x20000000 (0000ms, 0788ms total)
T11AC 001:330 JLINK_ClrBPEx(BPHandle = 0x00000005)  returns 0x00 (0000ms, 0788ms total)
T11AC 001:330 JLINK_ReadReg(R0)  returns 0x00000000 (0000ms, 0788ms total)
T11AC 001:331 JLINK_WriteMem(0x20000180, 0x0400 Bytes, ...) - Data: 01 22 00 23 06 E0 00 22 4F F0 00 43 02 E0 6F F0 ... -- CPU_WriteMem(1024 bytes @ 0x20000180)  returns 0x400 (0003ms, 0791ms total)
T11AC 001:334 JLINK_WriteReg(R0, 0x08010400)  returns 0x00 (0000ms, 0791ms total)
T11AC 001:334 JLINK_WriteReg(R1, 0x00000400)  returns 0x00 (0000ms, 0791ms total)
T11AC 001:334 JLINK_WriteReg(R2, 0x20000180)  returns 0x00 (0000ms, 0791ms total)
T11AC 001:334 JLINK_WriteReg(R3, 0x00000000)  returns 0x00 (0000ms, 0791ms total)
T11AC 001:334 JLINK_WriteReg(R4, 0x00000000)  returns 0x00 (0000ms, 0791ms total)
T11AC 001:334 JLINK_WriteReg(R5, 0x00000000)  returns 0x00 (0000ms, 0791ms total)
T11AC 001:334 JLINK_WriteReg(R6, 0x00000000)  returns 0x00 (0000ms, 0791ms total)
T11AC 001:334 JLINK_WriteReg(R7, 0x00000000)  returns 0x00 (0000ms, 0791ms total)
T11AC 001:334 JLINK_WriteReg(R8, 0x00000000)  returns 0x00 (0000ms, 0791ms total)
T11AC 001:334 JLINK_WriteReg(R9, 0x2000017C)  returns 0x00 (0000ms, 0791ms total)
T11AC 001:334 JLINK_WriteReg(R10, 0x00000000)  returns 0x00 (0000ms, 0791ms total)
T11AC 001:334 JLINK_WriteReg(R11, 0x00000000)  returns 0x00 (0000ms, 0791ms total)
T11AC 001:334 JLINK_WriteReg(R12, 0x00000000)  returns 0x00 (0000ms, 0791ms total)
T11AC 001:334 JLINK_WriteReg(R13 (SP), 0x20001000)  returns 0x00 (0000ms, 0791ms total)
T11AC 001:334 JLINK_WriteReg(R14, 0x20000001)  returns 0x00 (0000ms, 0791ms total)
T11AC 001:334 JLINK_WriteReg(R15 (PC), 0x20000108)  returns 0x00 (0000ms, 0791ms total)
T11AC 001:334 JLINK_WriteReg(XPSR, 0x01000000)  returns 0x00 (0000ms, 0791ms total)
T11AC 001:334 JLINK_WriteReg(MSP, 0x20001000)  returns 0x00 (0000ms, 0791ms total)
T11AC 001:334 JLINK_WriteReg(PSP, 0x20001000)  returns 0x00 (0000ms, 0791ms total)
T11AC 001:334 JLINK_WriteReg(CFBP, 0x00000000)  returns 0x00 (0000ms, 0791ms total)
T11AC 001:334 JLINK_SetBPEx(Addr = 0x20000000, Type = 0xFFFFFFF2)  returns 0x00000006 (0000ms, 0791ms total)
T11AC 001:334 JLINK_Go() (0004ms, 0795ms total)
T11AC 001:338 JLINK_IsHalted()  returns FALSE (0001ms, 0796ms total)
T11AC 001:351 JLINK_IsHalted() -- CPU_ReadMem(2 bytes @ 0x20000000)  returns TRUE (0004ms, 0799ms total)
T11AC 001:355 JLINK_ReadReg(R15 (PC))  returns 0x20000000 (0000ms, 0795ms total)
T11AC 001:355 JLINK_ClrBPEx(BPHandle = 0x00000006)  returns 0x00 (0000ms, 0795ms total)
T11AC 001:355 JLINK_ReadReg(R0)  returns 0x00000000 (0000ms, 0795ms total)
T11AC 001:356 JLINK_WriteMem(0x20000180, 0x0400 Bytes, ...) - Data: 99 42 08 BF 90 42 30 BD 06 4C 07 4D 06 E0 E0 68 ... -- CPU_WriteMem(1024 bytes @ 0x20000180)  returns 0x400 (0003ms, 0798ms total)
T11AC 001:359 JLINK_WriteReg(R0, 0x08010800)  returns 0x00 (0000ms, 0798ms total)
T11AC 001:359 JLINK_WriteReg(R1, 0x00000400)  returns 0x00 (0000ms, 0798ms total)
T11AC 001:359 JLINK_WriteReg(R2, 0x20000180)  returns 0x00 (0000ms, 0798ms total)
T11AC 001:359 JLINK_WriteReg(R3, 0x00000000)  returns 0x00 (0000ms, 0798ms total)
T11AC 001:359 JLINK_WriteReg(R4, 0x00000000)  returns 0x00 (0000ms, 0798ms total)
T11AC 001:359 JLINK_WriteReg(R5, 0x00000000)  returns 0x00 (0000ms, 0798ms total)
T11AC 001:359 JLINK_WriteReg(R6, 0x00000000)  returns 0x00 (0000ms, 0798ms total)
T11AC 001:359 JLINK_WriteReg(R7, 0x00000000)  returns 0x00 (0000ms, 0798ms total)
T11AC 001:359 JLINK_WriteReg(R8, 0x00000000)  returns 0x00 (0000ms, 0798ms total)
T11AC 001:359 JLINK_WriteReg(R9, 0x2000017C)  returns 0x00 (0000ms, 0798ms total)
T11AC 001:359 JLINK_WriteReg(R10, 0x00000000)  returns 0x00 (0000ms, 0798ms total)
T11AC 001:359 JLINK_WriteReg(R11, 0x00000000)  returns 0x00 (0000ms, 0798ms total)
T11AC 001:359 JLINK_WriteReg(R12, 0x00000000)  returns 0x00 (0000ms, 0798ms total)
T11AC 001:359 JLINK_WriteReg(R13 (SP), 0x20001000)  returns 0x00 (0000ms, 0798ms total)
T11AC 001:359 JLINK_WriteReg(R14, 0x20000001)  returns 0x00 (0000ms, 0798ms total)
T11AC 001:359 JLINK_WriteReg(R15 (PC), 0x20000108)  returns 0x00 (0000ms, 0798ms total)
T11AC 001:359 JLINK_WriteReg(XPSR, 0x01000000)  returns 0x00 (0000ms, 0798ms total)
T11AC 001:359 JLINK_WriteReg(MSP, 0x20001000)  returns 0x00 (0000ms, 0798ms total)
T11AC 001:359 JLINK_WriteReg(PSP, 0x20001000)  returns 0x00 (0000ms, 0798ms total)
T11AC 001:359 JLINK_WriteReg(CFBP, 0x00000000)  returns 0x00 (0000ms, 0798ms total)
T11AC 001:359 JLINK_SetBPEx(Addr = 0x20000000, Type = 0xFFFFFFF2)  returns 0x00000007 (0000ms, 0798ms total)
T11AC 001:359 JLINK_Go() (0003ms, 0801ms total)
T11AC 001:362 JLINK_IsHalted()  returns FALSE (0001ms, 0802ms total)
T11AC 001:364 JLINK_IsHalted()  returns FALSE (0001ms, 0802ms total)
T11AC 001:366 JLINK_IsHalted() -- CPU_ReadMem(2 bytes @ 0x20000000)  returns TRUE (0004ms, 0805ms total)
T11AC 001:370 JLINK_ReadReg(R15 (PC))  returns 0x20000000 (0000ms, 0801ms total)
T11AC 001:370 JLINK_ClrBPEx(BPHandle = 0x00000007)  returns 0x00 (0000ms, 0801ms total)
T11AC 001:370 JLINK_ReadReg(R0)  returns 0x00000000 (0000ms, 0801ms total)
T11AC 001:371 JLINK_WriteMem(0x20000180, 0x0400 Bytes, ...) - Data: 87 B2 0A 2E 05 DB A8 F1 01 00 C0 B2 5F EA 00 08 ... -- CPU_WriteMem(1024 bytes @ 0x20000180)  returns 0x400 (0003ms, 0804ms total)
T11AC 001:374 JLINK_WriteReg(R0, 0x08010C00)  returns 0x00 (0000ms, 0804ms total)
T11AC 001:374 JLINK_WriteReg(R1, 0x00000400)  returns 0x00 (0000ms, 0804ms total)
T11AC 001:374 JLINK_WriteReg(R2, 0x20000180)  returns 0x00 (0000ms, 0804ms total)
T11AC 001:374 JLINK_WriteReg(R3, 0x00000000)  returns 0x00 (0000ms, 0804ms total)
T11AC 001:374 JLINK_WriteReg(R4, 0x00000000)  returns 0x00 (0000ms, 0804ms total)
T11AC 001:374 JLINK_WriteReg(R5, 0x00000000)  returns 0x00 (0000ms, 0804ms total)
T11AC 001:374 JLINK_WriteReg(R6, 0x00000000)  returns 0x00 (0000ms, 0804ms total)
T11AC 001:374 JLINK_WriteReg(R7, 0x00000000)  returns 0x00 (0000ms, 0804ms total)
T11AC 001:374 JLINK_WriteReg(R8, 0x00000000)  returns 0x00 (0000ms, 0804ms total)
T11AC 001:374 JLINK_WriteReg(R9, 0x2000017C)  returns 0x00 (0000ms, 0804ms total)
T11AC 001:374 JLINK_WriteReg(R10, 0x00000000)  returns 0x00 (0000ms, 0804ms total)
T11AC 001:374 JLINK_WriteReg(R11, 0x00000000)  returns 0x00 (0000ms, 0804ms total)
T11AC 001:374 JLINK_WriteReg(R12, 0x00000000)  returns 0x00 (0000ms, 0804ms total)
T11AC 001:374 JLINK_WriteReg(R13 (SP), 0x20001000)  returns 0x00 (0000ms, 0804ms total)
T11AC 001:374 JLINK_WriteReg(R14, 0x20000001)  returns 0x00 (0000ms, 0804ms total)
T11AC 001:374 JLINK_WriteReg(R15 (PC), 0x20000108)  returns 0x00 (0000ms, 0804ms total)
T11AC 001:374 JLINK_WriteReg(XPSR, 0x01000000)  returns 0x00 (0000ms, 0804ms total)
T11AC 001:374 JLINK_WriteReg(MSP, 0x20001000)  returns 0x00 (0000ms, 0804ms total)
T11AC 001:374 JLINK_WriteReg(PSP, 0x20001000)  returns 0x00 (0000ms, 0804ms total)
T11AC 001:374 JLINK_WriteReg(CFBP, 0x00000000)  returns 0x00 (0000ms, 0804ms total)
T11AC 001:374 JLINK_SetBPEx(Addr = 0x20000000, Type = 0xFFFFFFF2)  returns 0x00000008 (0000ms, 0804ms total)
T11AC 001:374 JLINK_Go() (0003ms, 0807ms total)
T11AC 001:377 JLINK_IsHalted()  returns FALSE (0001ms, 0808ms total)
T11AC 001:379 JLINK_IsHalted()  returns FALSE (0001ms, 0808ms total)
T11AC 001:381 JLINK_IsHalted() -- CPU_ReadMem(2 bytes @ 0x20000000)  returns TRUE (0004ms, 0811ms total)
T11AC 001:385 JLINK_ReadReg(R15 (PC))  returns 0x20000000 (0000ms, 0807ms total)
T11AC 001:385 JLINK_ClrBPEx(BPHandle = 0x00000008)  returns 0x00 (0000ms, 0807ms total)
T11AC 001:385 JLINK_ReadReg(R0)  returns 0x00000000 (0000ms, 0807ms total)
T11AC 001:386 JLINK_WriteMem(0x20000180, 0x0400 Bytes, ...) - Data: 04 AA 68 1C 52 F8 20 00 81 42 0C DD 04 A9 68 1C ... -- CPU_WriteMem(1024 bytes @ 0x20000180)  returns 0x400 (0003ms, 0810ms total)
T11AC 001:389 JLINK_WriteReg(R0, 0x08011000)  returns 0x00 (0000ms, 0810ms total)
T11AC 001:389 JLINK_WriteReg(R1, 0x00000400)  returns 0x00 (0000ms, 0810ms total)
T11AC 001:389 JLINK_WriteReg(R2, 0x20000180)  returns 0x00 (0000ms, 0810ms total)
T11AC 001:389 JLINK_WriteReg(R3, 0x00000000)  returns 0x00 (0000ms, 0810ms total)
T11AC 001:389 JLINK_WriteReg(R4, 0x00000000)  returns 0x00 (0000ms, 0810ms total)
T11AC 001:389 JLINK_WriteReg(R5, 0x00000000)  returns 0x00 (0000ms, 0810ms total)
T11AC 001:389 JLINK_WriteReg(R6, 0x00000000)  returns 0x00 (0000ms, 0810ms total)
T11AC 001:389 JLINK_WriteReg(R7, 0x00000000)  returns 0x00 (0000ms, 0810ms total)
T11AC 001:389 JLINK_WriteReg(R8, 0x00000000)  returns 0x00 (0000ms, 0810ms total)
T11AC 001:389 JLINK_WriteReg(R9, 0x2000017C)  returns 0x00 (0000ms, 0810ms total)
T11AC 001:389 JLINK_WriteReg(R10, 0x00000000)  returns 0x00 (0000ms, 0810ms total)
T11AC 001:389 JLINK_WriteReg(R11, 0x00000000)  returns 0x00 (0000ms, 0810ms total)
T11AC 001:389 JLINK_WriteReg(R12, 0x00000000)  returns 0x00 (0000ms, 0810ms total)
T11AC 001:389 JLINK_WriteReg(R13 (SP), 0x20001000)  returns 0x00 (0000ms, 0810ms total)
T11AC 001:389 JLINK_WriteReg(R14, 0x20000001)  returns 0x00 (0000ms, 0810ms total)
T11AC 001:389 JLINK_WriteReg(R15 (PC), 0x20000108)  returns 0x00 (0000ms, 0810ms total)
T11AC 001:389 JLINK_WriteReg(XPSR, 0x01000000)  returns 0x00 (0000ms, 0810ms total)
T11AC 001:389 JLINK_WriteReg(MSP, 0x20001000)  returns 0x00 (0000ms, 0810ms total)
T11AC 001:389 JLINK_WriteReg(PSP, 0x20001000)  returns 0x00 (0000ms, 0810ms total)
T11AC 001:389 JLINK_WriteReg(CFBP, 0x00000000)  returns 0x00 (0000ms, 0810ms total)
T11AC 001:389 JLINK_SetBPEx(Addr = 0x20000000, Type = 0xFFFFFFF2)  returns 0x00000009 (0000ms, 0810ms total)
T11AC 001:389 JLINK_Go() (0003ms, 0813ms total)
T11AC 001:392 JLINK_IsHalted()  returns FALSE (0001ms, 0814ms total)
T11AC 001:442 JLINK_IsHalted() -- CPU_ReadMem(2 bytes @ 0x20000000)  returns TRUE (0004ms, 0817ms total)
T11AC 001:446 JLINK_ReadReg(R15 (PC))  returns 0x20000000 (0000ms, 0813ms total)
T11AC 001:446 JLINK_ClrBPEx(BPHandle = 0x00000009)  returns 0x00 (0000ms, 0813ms total)
T11AC 001:446 JLINK_ReadReg(R0)  returns 0x00000000 (0000ms, 0813ms total)
T11AC 001:447 JLINK_WriteMem(0x20000180, 0x0400 Bytes, ...) - Data: 03 F0 66 F8 40 46 05 B0 BD EC 08 8B F0 BD 00 00 ... -- CPU_WriteMem(1024 bytes @ 0x20000180)  returns 0x400 (0003ms, 0816ms total)
T11AC 001:450 JLINK_WriteReg(R0, 0x08011400)  returns 0x00 (0000ms, 0816ms total)
T11AC 001:450 JLINK_WriteReg(R1, 0x00000400)  returns 0x00 (0000ms, 0816ms total)
T11AC 001:450 JLINK_WriteReg(R2, 0x20000180)  returns 0x00 (0000ms, 0816ms total)
T11AC 001:450 JLINK_WriteReg(R3, 0x00000000)  returns 0x00 (0000ms, 0816ms total)
T11AC 001:450 JLINK_WriteReg(R4, 0x00000000)  returns 0x00 (0000ms, 0816ms total)
T11AC 001:450 JLINK_WriteReg(R5, 0x00000000)  returns 0x00 (0000ms, 0816ms total)
T11AC 001:450 JLINK_WriteReg(R6, 0x00000000)  returns 0x00 (0000ms, 0816ms total)
T11AC 001:450 JLINK_WriteReg(R7, 0x00000000)  returns 0x00 (0000ms, 0816ms total)
T11AC 001:450 JLINK_WriteReg(R8, 0x00000000)  returns 0x00 (0000ms, 0816ms total)
T11AC 001:450 JLINK_WriteReg(R9, 0x2000017C)  returns 0x00 (0000ms, 0816ms total)
T11AC 001:450 JLINK_WriteReg(R10, 0x00000000)  returns 0x00 (0000ms, 0816ms total)
T11AC 001:450 JLINK_WriteReg(R11, 0x00000000)  returns 0x00 (0000ms, 0816ms total)
T11AC 001:450 JLINK_WriteReg(R12, 0x00000000)  returns 0x00 (0000ms, 0816ms total)
T11AC 001:450 JLINK_WriteReg(R13 (SP), 0x20001000)  returns 0x00 (0000ms, 0816ms total)
T11AC 001:450 JLINK_WriteReg(R14, 0x20000001)  returns 0x00 (0000ms, 0816ms total)
T11AC 001:450 JLINK_WriteReg(R15 (PC), 0x20000108)  returns 0x00 (0000ms, 0816ms total)
T11AC 001:450 JLINK_WriteReg(XPSR, 0x01000000)  returns 0x00 (0000ms, 0816ms total)
T11AC 001:450 JLINK_WriteReg(MSP, 0x20001000)  returns 0x00 (0000ms, 0816ms total)
T11AC 001:450 JLINK_WriteReg(PSP, 0x20001000)  returns 0x00 (0000ms, 0816ms total)
T11AC 001:450 JLINK_WriteReg(CFBP, 0x00000000)  returns 0x00 (0000ms, 0816ms total)
T11AC 001:450 JLINK_SetBPEx(Addr = 0x20000000, Type = 0xFFFFFFF2)  returns 0x0000000A (0000ms, 0816ms total)
T11AC 001:450 JLINK_Go() (0003ms, 0819ms total)
T11AC 001:453 JLINK_IsHalted()  returns FALSE (0001ms, 0820ms total)
T11AC 001:455 JLINK_IsHalted()  returns FALSE (0001ms, 0820ms total)
T11AC 001:457 JLINK_IsHalted() -- CPU_ReadMem(2 bytes @ 0x20000000)  returns TRUE (0004ms, 0823ms total)
T11AC 001:461 JLINK_ReadReg(R15 (PC))  returns 0x20000000 (0000ms, 0819ms total)
T11AC 001:461 JLINK_ClrBPEx(BPHandle = 0x0000000A)  returns 0x00 (0000ms, 0819ms total)
T11AC 001:461 JLINK_ReadReg(R0)  returns 0x00000000 (0000ms, 0819ms total)
T11AC 001:461 JLINK_WriteMem(0x20000180, 0x0400 Bytes, ...) - Data: 69 6E 69 74 20 6D 6F 64 31 20 3D 25 64 20 62 75 ... -- CPU_WriteMem(1024 bytes @ 0x20000180)  returns 0x400 (0003ms, 0822ms total)
T11AC 001:464 JLINK_WriteReg(R0, 0x08011800)  returns 0x00 (0000ms, 0822ms total)
T11AC 001:464 JLINK_WriteReg(R1, 0x00000400)  returns 0x00 (0000ms, 0822ms total)
T11AC 001:464 JLINK_WriteReg(R2, 0x20000180)  returns 0x00 (0000ms, 0822ms total)
T11AC 001:464 JLINK_WriteReg(R3, 0x00000000)  returns 0x00 (0000ms, 0822ms total)
T11AC 001:464 JLINK_WriteReg(R4, 0x00000000)  returns 0x00 (0000ms, 0822ms total)
T11AC 001:464 JLINK_WriteReg(R5, 0x00000000)  returns 0x00 (0000ms, 0822ms total)
T11AC 001:464 JLINK_WriteReg(R6, 0x00000000)  returns 0x00 (0000ms, 0822ms total)
T11AC 001:464 JLINK_WriteReg(R7, 0x00000000)  returns 0x00 (0000ms, 0822ms total)
T11AC 001:464 JLINK_WriteReg(R8, 0x00000000)  returns 0x00 (0000ms, 0822ms total)
T11AC 001:464 JLINK_WriteReg(R9, 0x2000017C)  returns 0x00 (0000ms, 0822ms total)
T11AC 001:464 JLINK_WriteReg(R10, 0x00000000)  returns 0x00 (0000ms, 0822ms total)
T11AC 001:464 JLINK_WriteReg(R11, 0x00000000)  returns 0x00 (0000ms, 0822ms total)
T11AC 001:464 JLINK_WriteReg(R12, 0x00000000)  returns 0x00 (0000ms, 0822ms total)
T11AC 001:465 JLINK_WriteReg(R13 (SP), 0x20001000)  returns 0x00 (0000ms, 0823ms total)
T11AC 001:465 JLINK_WriteReg(R14, 0x20000001)  returns 0x00 (0000ms, 0823ms total)
T11AC 001:465 JLINK_WriteReg(R15 (PC), 0x20000108)  returns 0x00 (0000ms, 0823ms total)
T11AC 001:465 JLINK_WriteReg(XPSR, 0x01000000)  returns 0x00 (0000ms, 0823ms total)
T11AC 001:465 JLINK_WriteReg(MSP, 0x20001000)  returns 0x00 (0000ms, 0823ms total)
T11AC 001:465 JLINK_WriteReg(PSP, 0x20001000)  returns 0x00 (0000ms, 0823ms total)
T11AC 001:465 JLINK_WriteReg(CFBP, 0x00000000)  returns 0x00 (0000ms, 0823ms total)
T11AC 001:465 JLINK_SetBPEx(Addr = 0x20000000, Type = 0xFFFFFFF2)  returns 0x0000000B (0000ms, 0823ms total)
T11AC 001:465 JLINK_Go() (0002ms, 0825ms total)
T11AC 001:467 JLINK_IsHalted()  returns FALSE (0001ms, 0826ms total)
T11AC 001:469 JLINK_IsHalted()  returns FALSE (0000ms, 0825ms total)
T11AC 001:470 JLINK_IsHalted()  returns FALSE (0000ms, 0825ms total)
T11AC 001:471 JLINK_IsHalted()  returns FALSE (0000ms, 0825ms total)
T11AC 001:472 JLINK_IsHalted() -- CPU_ReadMem(2 bytes @ 0x20000000)  returns TRUE (0003ms, 0828ms total)
T11AC 001:475 JLINK_ReadReg(R15 (PC))  returns 0x20000000 (0000ms, 0825ms total)
T11AC 001:475 JLINK_ClrBPEx(BPHandle = 0x0000000B)  returns 0x00 (0000ms, 0825ms total)
T11AC 001:475 JLINK_ReadReg(R0)  returns 0x00000000 (0000ms, 0825ms total)
T11AC 001:476 JLINK_WriteMem(0x20000180, 0x0400 Bytes, ...) - Data: 12 D1 0B E0 20 2B 0B D0 21 2B 0A D0 22 2B 09 D0 ... -- CPU_WriteMem(1024 bytes @ 0x20000180)  returns 0x400 (0003ms, 0828ms total)
T11AC 001:479 JLINK_WriteReg(R0, 0x08011C00)  returns 0x00 (0000ms, 0828ms total)
T11AC 001:479 JLINK_WriteReg(R1, 0x00000400)  returns 0x00 (0000ms, 0828ms total)
T11AC 001:479 JLINK_WriteReg(R2, 0x20000180)  returns 0x00 (0000ms, 0828ms total)
T11AC 001:479 JLINK_WriteReg(R3, 0x00000000)  returns 0x00 (0000ms, 0828ms total)
T11AC 001:479 JLINK_WriteReg(R4, 0x00000000)  returns 0x00 (0000ms, 0828ms total)
T11AC 001:479 JLINK_WriteReg(R5, 0x00000000)  returns 0x00 (0000ms, 0828ms total)
T11AC 001:479 JLINK_WriteReg(R6, 0x00000000)  returns 0x00 (0000ms, 0828ms total)
T11AC 001:479 JLINK_WriteReg(R7, 0x00000000)  returns 0x00 (0000ms, 0828ms total)
T11AC 001:479 JLINK_WriteReg(R8, 0x00000000)  returns 0x00 (0000ms, 0828ms total)
T11AC 001:479 JLINK_WriteReg(R9, 0x2000017C)  returns 0x00 (0000ms, 0828ms total)
T11AC 001:479 JLINK_WriteReg(R10, 0x00000000)  returns 0x00 (0000ms, 0828ms total)
T11AC 001:479 JLINK_WriteReg(R11, 0x00000000)  returns 0x00 (0000ms, 0828ms total)
T11AC 001:479 JLINK_WriteReg(R12, 0x00000000)  returns 0x00 (0000ms, 0828ms total)
T11AC 001:479 JLINK_WriteReg(R13 (SP), 0x20001000)  returns 0x00 (0000ms, 0828ms total)
T11AC 001:479 JLINK_WriteReg(R14, 0x20000001)  returns 0x00 (0000ms, 0828ms total)
T11AC 001:479 JLINK_WriteReg(R15 (PC), 0x20000108)  returns 0x00 (0000ms, 0828ms total)
T11AC 001:479 JLINK_WriteReg(XPSR, 0x01000000)  returns 0x00 (0000ms, 0828ms total)
T11AC 001:479 JLINK_WriteReg(MSP, 0x20001000)  returns 0x00 (0000ms, 0828ms total)
T11AC 001:479 JLINK_WriteReg(PSP, 0x20001000)  returns 0x00 (0000ms, 0828ms total)
T11AC 001:479 JLINK_WriteReg(CFBP, 0x00000000)  returns 0x00 (0000ms, 0828ms total)
T11AC 001:479 JLINK_SetBPEx(Addr = 0x20000000, Type = 0xFFFFFFF2)  returns 0x0000000C (0000ms, 0828ms total)
T11AC 001:479 JLINK_Go() (0002ms, 0830ms total)
T11AC 001:481 JLINK_IsHalted()  returns FALSE (0001ms, 0831ms total)
T11AC 001:483 JLINK_IsHalted()  returns FALSE (0001ms, 0831ms total)
T11AC 001:485 JLINK_IsHalted() -- CPU_ReadMem(2 bytes @ 0x20000000)  returns TRUE (0004ms, 0834ms total)
T11AC 001:489 JLINK_ReadReg(R15 (PC))  returns 0x20000000 (0000ms, 0830ms total)
T11AC 001:489 JLINK_ClrBPEx(BPHandle = 0x0000000C)  returns 0x00 (0000ms, 0830ms total)
T11AC 001:489 JLINK_ReadReg(R0)  returns 0x00000000 (0000ms, 0830ms total)
T11AC 001:490 JLINK_WriteMem(0x20000180, 0x0400 Bytes, ...) - Data: 17 4B 40 F2 0D 22 17 A1 CD E9 00 04 1A A0 09 F0 ... -- CPU_WriteMem(1024 bytes @ 0x20000180)  returns 0x400 (0002ms, 0832ms total)
T11AC 001:493 JLINK_WriteReg(R0, 0x08012000)  returns 0x00 (0000ms, 0832ms total)
T11AC 001:493 JLINK_WriteReg(R1, 0x00000400)  returns 0x00 (0000ms, 0832ms total)
T11AC 001:493 JLINK_WriteReg(R2, 0x20000180)  returns 0x00 (0000ms, 0832ms total)
T11AC 001:493 JLINK_WriteReg(R3, 0x00000000)  returns 0x00 (0000ms, 0832ms total)
T11AC 001:493 JLINK_WriteReg(R4, 0x00000000)  returns 0x00 (0000ms, 0832ms total)
T11AC 001:493 JLINK_WriteReg(R5, 0x00000000)  returns 0x00 (0000ms, 0832ms total)
T11AC 001:493 JLINK_WriteReg(R6, 0x00000000)  returns 0x00 (0000ms, 0832ms total)
T11AC 001:493 JLINK_WriteReg(R7, 0x00000000)  returns 0x00 (0000ms, 0832ms total)
T11AC 001:493 JLINK_WriteReg(R8, 0x00000000)  returns 0x00 (0000ms, 0832ms total)
T11AC 001:493 JLINK_WriteReg(R9, 0x2000017C)  returns 0x00 (0000ms, 0832ms total)
T11AC 001:493 JLINK_WriteReg(R10, 0x00000000)  returns 0x00 (0000ms, 0832ms total)
T11AC 001:493 JLINK_WriteReg(R11, 0x00000000)  returns 0x00 (0000ms, 0832ms total)
T11AC 001:493 JLINK_WriteReg(R12, 0x00000000)  returns 0x00 (0000ms, 0832ms total)
T11AC 001:493 JLINK_WriteReg(R13 (SP), 0x20001000)  returns 0x00 (0000ms, 0832ms total)
T11AC 001:493 JLINK_WriteReg(R14, 0x20000001)  returns 0x00 (0000ms, 0832ms total)
T11AC 001:493 JLINK_WriteReg(R15 (PC), 0x20000108)  returns 0x00 (0000ms, 0832ms total)
T11AC 001:493 JLINK_WriteReg(XPSR, 0x01000000)  returns 0x00 (0000ms, 0832ms total)
T11AC 001:493 JLINK_WriteReg(MSP, 0x20001000)  returns 0x00 (0000ms, 0832ms total)
T11AC 001:493 JLINK_WriteReg(PSP, 0x20001000)  returns 0x00 (0000ms, 0832ms total)
T11AC 001:493 JLINK_WriteReg(CFBP, 0x00000000)  returns 0x00 (0000ms, 0832ms total)
T11AC 001:493 JLINK_SetBPEx(Addr = 0x20000000, Type = 0xFFFFFFF2)  returns 0x0000000D (0000ms, 0832ms total)
T11AC 001:493 JLINK_Go() (0001ms, 0833ms total)
T11AC 001:494 JLINK_IsHalted()  returns FALSE (0002ms, 0835ms total)
T11AC 001:497 JLINK_IsHalted()  returns FALSE (0001ms, 0834ms total)
T11AC 001:499 JLINK_IsHalted() -- CPU_ReadMem(2 bytes @ 0x20000000)  returns TRUE (0004ms, 0837ms total)
T11AC 001:503 JLINK_ReadReg(R15 (PC))  returns 0x20000000 (0000ms, 0833ms total)
T11AC 001:503 JLINK_ClrBPEx(BPHandle = 0x0000000D)  returns 0x00 (0000ms, 0833ms total)
T11AC 001:503 JLINK_ReadReg(R0)  returns 0x00000000 (0000ms, 0833ms total)
T11AC 001:503 JLINK_WriteMem(0x20000180, 0x0400 Bytes, ...) - Data: 0A 00 00 00 72 65 67 20 39 34 3A 25 30 32 58 2C ... -- CPU_WriteMem(1024 bytes @ 0x20000180)  returns 0x400 (0004ms, 0837ms total)
T11AC 001:507 JLINK_WriteReg(R0, 0x08012400)  returns 0x00 (0000ms, 0837ms total)
T11AC 001:507 JLINK_WriteReg(R1, 0x00000400)  returns 0x00 (0000ms, 0837ms total)
T11AC 001:507 JLINK_WriteReg(R2, 0x20000180)  returns 0x00 (0000ms, 0837ms total)
T11AC 001:507 JLINK_WriteReg(R3, 0x00000000)  returns 0x00 (0000ms, 0837ms total)
T11AC 001:507 JLINK_WriteReg(R4, 0x00000000)  returns 0x00 (0000ms, 0837ms total)
T11AC 001:507 JLINK_WriteReg(R5, 0x00000000)  returns 0x00 (0000ms, 0837ms total)
T11AC 001:507 JLINK_WriteReg(R6, 0x00000000)  returns 0x00 (0000ms, 0837ms total)
T11AC 001:507 JLINK_WriteReg(R7, 0x00000000)  returns 0x00 (0000ms, 0837ms total)
T11AC 001:507 JLINK_WriteReg(R8, 0x00000000)  returns 0x00 (0000ms, 0837ms total)
T11AC 001:507 JLINK_WriteReg(R9, 0x2000017C)  returns 0x00 (0000ms, 0837ms total)
T11AC 001:507 JLINK_WriteReg(R10, 0x00000000)  returns 0x00 (0000ms, 0837ms total)
T11AC 001:507 JLINK_WriteReg(R11, 0x00000000)  returns 0x00 (0000ms, 0837ms total)
T11AC 001:507 JLINK_WriteReg(R12, 0x00000000)  returns 0x00 (0000ms, 0837ms total)
T11AC 001:507 JLINK_WriteReg(R13 (SP), 0x20001000)  returns 0x00 (0000ms, 0837ms total)
T11AC 001:507 JLINK_WriteReg(R14, 0x20000001)  returns 0x00 (0000ms, 0837ms total)
T11AC 001:507 JLINK_WriteReg(R15 (PC), 0x20000108)  returns 0x00 (0000ms, 0837ms total)
T11AC 001:507 JLINK_WriteReg(XPSR, 0x01000000)  returns 0x00 (0000ms, 0837ms total)
T11AC 001:507 JLINK_WriteReg(MSP, 0x20001000)  returns 0x00 (0000ms, 0837ms total)
T11AC 001:507 JLINK_WriteReg(PSP, 0x20001000)  returns 0x00 (0000ms, 0837ms total)
T11AC 001:507 JLINK_WriteReg(CFBP, 0x00000000)  returns 0x00 (0000ms, 0837ms total)
T11AC 001:507 JLINK_SetBPEx(Addr = 0x20000000, Type = 0xFFFFFFF2)  returns 0x0000000E (0000ms, 0837ms total)
T11AC 001:507 JLINK_Go() (0003ms, 0840ms total)
T11AC 001:510 JLINK_IsHalted()  returns FALSE (0001ms, 0841ms total)
T11AC 001:580 JLINK_IsHalted() -- CPU_ReadMem(2 bytes @ 0x20000000)  returns TRUE (0004ms, 0844ms total)
T11AC 001:584 JLINK_ReadReg(R15 (PC))  returns 0x20000000 (0000ms, 0840ms total)
T11AC 001:584 JLINK_ClrBPEx(BPHandle = 0x0000000E)  returns 0x00 (0000ms, 0840ms total)
T11AC 001:584 JLINK_ReadReg(R0)  returns 0x00000000 (0000ms, 0840ms total)
T11AC 001:585 JLINK_WriteMem(0x20000180, 0x0400 Bytes, ...) - Data: 77 68 6F 6C 65 20 63 70 74 20 66 72 61 6D 65 20 ... -- CPU_WriteMem(1024 bytes @ 0x20000180)  returns 0x400 (0003ms, 0843ms total)
T11AC 001:588 JLINK_WriteReg(R0, 0x08012800)  returns 0x00 (0000ms, 0843ms total)
T11AC 001:588 JLINK_WriteReg(R1, 0x00000400)  returns 0x00 (0000ms, 0843ms total)
T11AC 001:588 JLINK_WriteReg(R2, 0x20000180)  returns 0x00 (0000ms, 0843ms total)
T11AC 001:588 JLINK_WriteReg(R3, 0x00000000)  returns 0x00 (0000ms, 0843ms total)
T11AC 001:588 JLINK_WriteReg(R4, 0x00000000)  returns 0x00 (0000ms, 0843ms total)
T11AC 001:588 JLINK_WriteReg(R5, 0x00000000)  returns 0x00 (0000ms, 0843ms total)
T11AC 001:588 JLINK_WriteReg(R6, 0x00000000)  returns 0x00 (0000ms, 0843ms total)
T11AC 001:588 JLINK_WriteReg(R7, 0x00000000)  returns 0x00 (0000ms, 0843ms total)
T11AC 001:588 JLINK_WriteReg(R8, 0x00000000)  returns 0x00 (0000ms, 0843ms total)
T11AC 001:588 JLINK_WriteReg(R9, 0x2000017C)  returns 0x00 (0000ms, 0843ms total)
T11AC 001:588 JLINK_WriteReg(R10, 0x00000000)  returns 0x00 (0000ms, 0843ms total)
T11AC 001:588 JLINK_WriteReg(R11, 0x00000000)  returns 0x00 (0000ms, 0843ms total)
T11AC 001:588 JLINK_WriteReg(R12, 0x00000000)  returns 0x00 (0000ms, 0843ms total)
T11AC 001:588 JLINK_WriteReg(R13 (SP), 0x20001000)  returns 0x00 (0000ms, 0843ms total)
T11AC 001:588 JLINK_WriteReg(R14, 0x20000001)  returns 0x00 (0000ms, 0843ms total)
T11AC 001:588 JLINK_WriteReg(R15 (PC), 0x20000108)  returns 0x00 (0000ms, 0843ms total)
T11AC 001:588 JLINK_WriteReg(XPSR, 0x01000000)  returns 0x00 (0000ms, 0843ms total)
T11AC 001:588 JLINK_WriteReg(MSP, 0x20001000)  returns 0x00 (0000ms, 0843ms total)
T11AC 001:588 JLINK_WriteReg(PSP, 0x20001000)  returns 0x00 (0000ms, 0843ms total)
T11AC 001:588 JLINK_WriteReg(CFBP, 0x00000000)  returns 0x00 (0000ms, 0843ms total)
T11AC 001:588 JLINK_SetBPEx(Addr = 0x20000000, Type = 0xFFFFFFF2)  returns 0x0000000F (0000ms, 0843ms total)
T11AC 001:588 JLINK_Go() (0003ms, 0846ms total)
T11AC 001:591 JLINK_IsHalted()  returns FALSE (0001ms, 0847ms total)
T11AC 001:593 JLINK_IsHalted()  returns FALSE (0001ms, 0847ms total)
T11AC 001:595 JLINK_IsHalted() -- CPU_ReadMem(2 bytes @ 0x20000000)  returns TRUE (0004ms, 0850ms total)
T11AC 001:599 JLINK_ReadReg(R15 (PC))  returns 0x20000000 (0000ms, 0846ms total)
T11AC 001:599 JLINK_ClrBPEx(BPHandle = 0x0000000F)  returns 0x00 (0000ms, 0846ms total)
T11AC 001:599 JLINK_ReadReg(R0)  returns 0x00000000 (0000ms, 0846ms total)
T11AC 001:599 JLINK_WriteMem(0x20000180, 0x0400 Bytes, ...) - Data: 51 00 00 20 5F 4F 58 49 46 50 5F 49 43 5F 44 52 ... -- CPU_WriteMem(1024 bytes @ 0x20000180)  returns 0x400 (0003ms, 0849ms total)
T11AC 001:602 JLINK_WriteReg(R0, 0x08012C00)  returns 0x00 (0000ms, 0849ms total)
T11AC 001:602 JLINK_WriteReg(R1, 0x00000400)  returns 0x00 (0000ms, 0849ms total)
T11AC 001:602 JLINK_WriteReg(R2, 0x20000180)  returns 0x00 (0000ms, 0849ms total)
T11AC 001:602 JLINK_WriteReg(R3, 0x00000000)  returns 0x00 (0000ms, 0849ms total)
T11AC 001:602 JLINK_WriteReg(R4, 0x00000000)  returns 0x00 (0000ms, 0849ms total)
T11AC 001:602 JLINK_WriteReg(R5, 0x00000000)  returns 0x00 (0000ms, 0849ms total)
T11AC 001:602 JLINK_WriteReg(R6, 0x00000000)  returns 0x00 (0000ms, 0849ms total)
T11AC 001:602 JLINK_WriteReg(R7, 0x00000000)  returns 0x00 (0000ms, 0849ms total)
T11AC 001:602 JLINK_WriteReg(R8, 0x00000000)  returns 0x00 (0000ms, 0849ms total)
T11AC 001:602 JLINK_WriteReg(R9, 0x2000017C)  returns 0x00 (0000ms, 0849ms total)
T11AC 001:602 JLINK_WriteReg(R10, 0x00000000)  returns 0x00 (0000ms, 0849ms total)
T11AC 001:602 JLINK_WriteReg(R11, 0x00000000)  returns 0x00 (0000ms, 0849ms total)
T11AC 001:602 JLINK_WriteReg(R12, 0x00000000)  returns 0x00 (0000ms, 0849ms total)
T11AC 001:602 JLINK_WriteReg(R13 (SP), 0x20001000)  returns 0x00 (0000ms, 0849ms total)
T11AC 001:602 JLINK_WriteReg(R14, 0x20000001)  returns 0x00 (0000ms, 0849ms total)
T11AC 001:602 JLINK_WriteReg(R15 (PC), 0x20000108)  returns 0x00 (0000ms, 0849ms total)
T11AC 001:602 JLINK_WriteReg(XPSR, 0x01000000)  returns 0x00 (0000ms, 0849ms total)
T11AC 001:602 JLINK_WriteReg(MSP, 0x20001000)  returns 0x00 (0000ms, 0849ms total)
T11AC 001:602 JLINK_WriteReg(PSP, 0x20001000)  returns 0x00 (0000ms, 0849ms total)
T11AC 001:602 JLINK_WriteReg(CFBP, 0x00000000)  returns 0x00 (0000ms, 0849ms total)
T11AC 001:602 JLINK_SetBPEx(Addr = 0x20000000, Type = 0xFFFFFFF2)  returns 0x00000010 (0000ms, 0849ms total)
T11AC 001:602 JLINK_Go() (0003ms, 0852ms total)
T11AC 001:605 JLINK_IsHalted()  returns FALSE (0001ms, 0853ms total)
T11AC 001:665 JLINK_IsHalted() -- CPU_ReadMem(2 bytes @ 0x20000000)  returns TRUE (0004ms, 0856ms total)
T11AC 001:669 JLINK_ReadReg(R15 (PC))  returns 0x20000000 (0000ms, 0852ms total)
T11AC 001:669 JLINK_ClrBPEx(BPHandle = 0x00000010)  returns 0x00 (0000ms, 0852ms total)
T11AC 001:669 JLINK_ReadReg(R0)  returns 0x00000000 (0000ms, 0852ms total)
T11AC 001:669 JLINK_WriteMem(0x20000180, 0x0400 Bytes, ...) - Data: BD E8 F0 9F 00 00 00 20 4C 16 00 20 00 00 02 40 ... -- CPU_WriteMem(1024 bytes @ 0x20000180)  returns 0x400 (0003ms, 0855ms total)
T11AC 001:673 JLINK_WriteReg(R0, 0x08013000)  returns 0x00 (0000ms, 0855ms total)
T11AC 001:673 JLINK_WriteReg(R1, 0x00000400)  returns 0x00 (0000ms, 0855ms total)
T11AC 001:673 JLINK_WriteReg(R2, 0x20000180)  returns 0x00 (0000ms, 0855ms total)
T11AC 001:673 JLINK_WriteReg(R3, 0x00000000)  returns 0x00 (0000ms, 0855ms total)
T11AC 001:673 JLINK_WriteReg(R4, 0x00000000)  returns 0x00 (0000ms, 0855ms total)
T11AC 001:673 JLINK_WriteReg(R5, 0x00000000)  returns 0x00 (0000ms, 0855ms total)
T11AC 001:673 JLINK_WriteReg(R6, 0x00000000)  returns 0x00 (0000ms, 0855ms total)
T11AC 001:673 JLINK_WriteReg(R7, 0x00000000)  returns 0x00 (0000ms, 0855ms total)
T11AC 001:673 JLINK_WriteReg(R8, 0x00000000)  returns 0x00 (0000ms, 0855ms total)
T11AC 001:673 JLINK_WriteReg(R9, 0x2000017C)  returns 0x00 (0000ms, 0855ms total)
T11AC 001:673 JLINK_WriteReg(R10, 0x00000000)  returns 0x00 (0000ms, 0855ms total)
T11AC 001:673 JLINK_WriteReg(R11, 0x00000000)  returns 0x00 (0000ms, 0855ms total)
T11AC 001:673 JLINK_WriteReg(R12, 0x00000000)  returns 0x00 (0000ms, 0855ms total)
T11AC 001:673 JLINK_WriteReg(R13 (SP), 0x20001000)  returns 0x00 (0000ms, 0855ms total)
T11AC 001:673 JLINK_WriteReg(R14, 0x20000001)  returns 0x00 (0001ms, 0856ms total)
